! Created Mon Jul 25 09:22:13 2022
# hz S ri R 50
! 4 Port Network Data from SP1.SP block
! freq  reS11  imS11  reS12  imS12  reS13  imS13  reS14  imS14  
!       reS21  imS21  reS22  imS22  reS23  imS23  reS24  imS24  
!       reS31  imS31  reS32  imS32  reS33  imS33  reS34  imS34  
!       reS41  imS41  reS42  imS42  reS43  imS43  reS44  imS44  
!     
          1.75e+14      -0.863689064        -0.10027825        0.012058797     -0.00616218092       0.0174248407     -0.00905354719       0.0151618364     -0.00800465425
                      0.012058797     -0.00616218092       -0.935678947      -0.0654479224        0.010384533     -0.00734095614       0.0108145227     -0.00797642253
                     0.0174248407     -0.00905354719        0.010384533     -0.00734095614       -0.913793327       -0.085934736      0.00949422382     -0.00645611539
                     0.0151618364     -0.00800465425       0.0108145227     -0.00797642253      0.00949422382     -0.00645611539       -0.919917682      -0.0820368496

         1.751e+14      -0.864098584      -0.0998905003       0.0120625955     -0.00614028257       0.0174409601     -0.00902123601       0.0151737639     -0.00797394565
                     0.0120625955     -0.00614028257       -0.935917552      -0.0650125651       0.0103893695     -0.00729852669        0.010815842     -0.00792863209
                     0.0174409601     -0.00902123601       0.0103893695     -0.00729852669        -0.91400099      -0.0853892377      0.00950891943     -0.00641782014
                     0.0151737639     -0.00797394565        0.010815842     -0.00792863209      0.00950891943     -0.00641782014       -0.920131163      -0.0814937754

         1.752e+14      -0.864512408      -0.0994991737       0.0120666961     -0.00611845223       0.0174577801     -0.00898931108       0.0151863192     -0.00794346447
                     0.0120666961     -0.00611845223       -0.936156786      -0.0645735735       0.0103946814     -0.00725609397       0.0108176327     -0.00788075105
                     0.0174577801     -0.00898931108       0.0103946814     -0.00725609397       -0.914208364        -0.08484158      0.00952430438      -0.0063796554
                     0.0151863192     -0.00794346447       0.0108176327     -0.00788075105      0.00952430438      -0.0063796554       -0.920344098      -0.0809480049

         1.753e+14       -0.86493064      -0.0991040892         0.01207111     -0.00609669423       0.0174753156     -0.00895779647       0.0151995198     -0.00791322848
                       0.01207111     -0.00609669423        -0.93639661      -0.0641308408        0.010400485     -0.00721366455       0.0108199129     -0.00783278378
                     0.0174753156     -0.00895779647        0.010400485     -0.00721366455       -0.914415451      -0.0842917133       0.0095403997     -0.00634163672
                     0.0151995198     -0.00791322848       0.0108199129     -0.00783278378       0.0095403997     -0.00634163672       -0.920556465      -0.0803994853

         1.754e+14      -0.865353383      -0.0987050557        0.012075849     -0.00607501335       0.0174935814     -0.00892671765       0.0152133832     -0.00788325668
                      0.012075849     -0.00607501335       -0.936636983      -0.0636842575       0.0104067975     -0.00717124568        0.010822702     -0.00778473528
                     0.0174935814     -0.00892671765       0.0104067975     -0.00717124568       -0.914622255      -0.0837395852      0.00955722703      -0.0063037808
                     0.0152133832     -0.00788325668        0.010822702     -0.00778473528      0.00955722703      -0.0063037808       -0.920768241      -0.0798481619

         1.755e+14       -0.86578074      -0.0983018714       0.0120809254     -0.00605341486       0.0175125927     -0.00889610151       0.0152279275     -0.00785356938
                     0.0120809254     -0.00605341486        -0.93687786      -0.0632337112       0.0104136366     -0.00712884531       0.0108260197     -0.00773661129
                     0.0175125927     -0.00889610151       0.0104136366     -0.00712884531       -0.914828782      -0.0831851406      0.00957480863     -0.00626610565
                     0.0152279275     -0.00785356938       0.0108260197     -0.00773661129      0.00957480863     -0.00626610565         -0.9209794      -0.0792939783

         1.756e+14      -0.866212816      -0.0978943229       0.0120863522     -0.00603190454       0.0175323641     -0.00886597649       0.0152431711     -0.00782418823
                     0.0120863522     -0.00603190454       -0.937119194       -0.062779087       0.0104210209     -0.00708647216       0.0108298867     -0.00768841826
                     0.0175323641     -0.00886597649       0.0104210209     -0.00708647216       -0.915035036      -0.0826283215       0.0095931674     -0.00622863059
                     0.0152431711     -0.00782418823       0.0108298867     -0.00768841826       0.0095931674     -0.00622863059       -0.921189919      -0.0787368765

         1.757e+14      -0.866649717      -0.0974821849        0.012092143     -0.00601048877       0.0175529107      -0.0088363726       0.0152591327     -0.00779513634
                      0.012092143     -0.00601048877        -0.93736093      -0.0623202669       0.0104289695     -0.00704413577       0.0108343247     -0.00764016352
                     0.0175529107      -0.0088363726       0.0104289695     -0.00704413577       -0.915241024      -0.0820690664      0.00961232686      -0.0061913764
                     0.0152591327     -0.00779513634       0.0108343247     -0.00764016352      0.00961232686      -0.0061913764       -0.921399773       -0.078176796

         1.758e+14      -0.867091547      -0.0970652193        0.012098312     -0.00598917456        0.017574247     -0.00880732154       0.0152758313      -0.0077664384
                      0.012098312     -0.00598917456       -0.937603012      -0.0618571302       0.0104375023     -0.00700184661       0.0108393559     -0.00759185528
                      0.017574247     -0.00880732154       0.0104375023     -0.00700184661       -0.915446751      -0.0815073103      0.00963231114     -0.00615436541
                     0.0152758313      -0.0077664384       0.0108393559     -0.00759185528      0.00963231114     -0.00615436541       -0.921608936      -0.0776136746

         1.759e+14      -0.867538412      -0.0966431746       0.0121048743     -0.00596796962       0.0175963875     -0.00877885676        0.015293286     -0.00773812072
                     0.0121048743     -0.00596796962       -0.937845377      -0.0613895535       0.0104466398     -0.00695961611       0.0108450036     -0.00754350274
                     0.0175963875     -0.00877885676       0.0104466398     -0.00695961611       -0.915652226      -0.0809429843      0.00965314501     -0.00611762161
                      0.015293286     -0.00773812072       0.0108450036     -0.00754350274      0.00965314501     -0.00611762161       -0.921817383      -0.0770474474

          1.76e+14      -0.867990416      -0.0962157847       0.0121118455     -0.00594688246       0.0176193463     -0.00875101357       0.0153115162     -0.00771021134
                     0.0121118455     -0.00594688246        -0.93808796      -0.0609174106       0.0104564035     -0.00691745674        0.010851292     -0.00749511617
                     0.0176193463     -0.00875101357       0.0104564035     -0.00691745674       -0.915857456      -0.0803760153      0.00967485383     -0.00608117077
                     0.0153115162     -0.00771021134        0.010851292     -0.00749511617      0.00967485383     -0.00608117077       -0.922025087       -0.076478047

         1.761e+14      -0.868447661      -0.0957827685       0.0121192419     -0.00592592239       0.0176431374     -0.00872382921       0.0153305416      -0.0076827402
                     0.0121192419     -0.00592592239       -0.938330687      -0.0604405722       0.0104668155     -0.00687538214       0.0108582462       -0.007446707
                     0.0176431374     -0.00872382921       0.0104668155     -0.00687538214       -0.916062449      -0.0798063255      0.00969746353     -0.00604504057
                     0.0153305416      -0.0076827402       0.0108582462       -0.007446707      0.00969746353     -0.00604504057        -0.92223202      -0.0759054032

         1.762e+14      -0.868910248       -0.095343829       0.0121270806     -0.00590509968        0.017667774     -0.00869734293       0.0153503816     -0.00765573915
                     0.0121270806     -0.00590509968       -0.938573482      -0.0599589067       0.0104778988      -0.0068334072       0.0108658922     -0.00739828796
                      0.017667774     -0.00869734293       0.0104778988      -0.0068334072       -0.916267213      -0.0792338323      0.00972100064     -0.00600926073
                     0.0153503816     -0.00765573915       0.0108658922     -0.00739828796      0.00972100064     -0.00600926073       -0.922438155      -0.0753294429

         1.763e+14      -0.869378277      -0.0948986519       0.0121353798     -0.00588442561       0.0176932689     -0.00867159611       0.0153710561     -0.00762924216
                     0.0121353798     -0.00588442561       -0.938816262      -0.0594722796       0.0104896772     -0.00679154813       0.0108742572     -0.00734987311
                     0.0176932689     -0.00867159611       0.0104896772     -0.00679154813       -0.916471759      -0.0786584476       0.0097454922     -0.00597386314
                     0.0153710561     -0.00762924216       0.0108742572     -0.00734987311       0.0097454922     -0.00597386314       -0.922643463      -0.0747500895

         1.764e+14      -0.869851843      -0.0944469052        0.012144158     -0.00586391259       0.0177196344     -0.00864663235       0.0153925847      -0.0076032854
                      0.012144158     -0.00586391259       -0.939058937      -0.0589805536       0.0105021753     -0.00674982263        0.010883369     -0.00730147806
                     0.0177196344     -0.00864663235       0.0105021753     -0.00674982263       -0.916676094      -0.0780800774      0.00977096574     -0.00593888206
                     0.0153925847      -0.0076032854        0.010883369     -0.00730147806      0.00977096574     -0.00593888206       -0.922847916      -0.0741672631

         1.765e+14      -0.870331039      -0.0939882379       0.0121534349     -0.00584357424       0.0177468818     -0.00862249754       0.0154149869     -0.00757790735
                     0.0121534349     -0.00584357424       -0.939301412      -0.0584835889       0.0105154186     -0.00670824995       0.0108932568     -0.00725312002
                     0.0177468818     -0.00862249754       0.0105154186     -0.00670824995        -0.91688023      -0.0774986214      0.00979744926     -0.00590435422
                     0.0154149869     -0.00757790735       0.0108932568     -0.00725312002      0.00979744926     -0.00590435422       -0.923051484      -0.0735808794

         1.766e+14      -0.870815952      -0.0935222788       0.0121632309     -0.00582342554       0.0177750216     -0.00859923998       0.0154382819     -0.00755314896
                     0.0121632309     -0.00582342554       -0.939543585      -0.0579812433       0.0105294332     -0.00666685109       0.0109039506     -0.00720481799
                     0.0177750216     -0.00859923998       0.0105294332     -0.00666685109       -0.917084174      -0.0769139723      0.00982497115     -0.00587031907
                     0.0154382819     -0.00755314896       0.0109039506     -0.00720481799      0.00982497115     -0.00587031907       -0.923254135      -0.0729908504

         1.767e+14      -0.871306665      -0.0930486357       0.0121735674     -0.00580348294       0.0178040631     -0.00857691047       0.0154624889     -0.00752905381
                     0.0121735674     -0.00580348294       -0.939785345      -0.0574733721       0.0105442465      -0.0066256489       0.0109154814     -0.00715659288
                     0.0178040631     -0.00857691047       0.0105442465      -0.0066256489       -0.917287936      -0.0763260157      0.00985356013     -0.00583681891
                     0.0154624889     -0.00752905381       0.0109154814     -0.00715659288      0.00985356013     -0.00583681891       -0.923455837      -0.0723970831

         1.768e+14      -0.871803252      -0.0925668939       0.0121844665      -0.0057837645       0.0178340147     -0.00855556239       0.0154876263     -0.00750566819
                     0.0121844665      -0.0057837645       -0.940026577      -0.0569598281       0.0105598863     -0.00658466825       0.0109278812     -0.00710846772
                     0.0178340147     -0.00855556239       0.0105598863     -0.00658466825       -0.917491525      -0.0757346287      0.00988324516     -0.00580389911
                     0.0154876263     -0.00750566819       0.0109278812     -0.00710846772      0.00988324516     -0.00580389911       -0.923656558      -0.0717994795

         1.769e+14      -0.872305783      -0.0920766153       0.0121959513     -0.00576429008       0.0178648831      -0.0085352518       0.0155137121     -0.00748304129
                     0.0121959513     -0.00576429008       -0.940267154      -0.0564404622       0.0105763815     -0.00654393619       0.0109411833     -0.00706046778
                     0.0178648831      -0.0085352518       0.0105763815     -0.00654393619       -0.917694948      -0.0751396798      0.00991405535     -0.00577160832
                     0.0155137121     -0.00748304129       0.0109411833     -0.00706046778      0.00991405535     -0.00577160832       -0.923856263      -0.0711979362

          1.77e+14      -0.872814314      -0.0915773369       0.0122080457     -0.00574508144       0.0178966736     -0.00851603756       0.0155407635     -0.00746122536
                     0.0122080457     -0.00574508144       -0.940506945      -0.0559151231       0.0105937617     -0.00650348219       0.0109554217     -0.00701262083
                     0.0178966736     -0.00851603756       0.0105937617     -0.00650348219       -0.917898211      -0.0745410282      0.00994601987     -0.00573999871
                     0.0155407635     -0.00746122536       0.0109554217     -0.00701262083      0.00994601987     -0.00573999871       -0.924054916      -0.0705923436

         1.771e+14      -0.873328894      -0.0910685696       0.0122207746     -0.00572616252       0.0179293897     -0.00849798136       0.0155687969     -0.00744027582
                     0.0122207746     -0.00572616252       -0.940745806      -0.0553836574       0.0106120574     -0.00646333826       0.0109706314     -0.00696495733
                     0.0179293897     -0.00849798136       0.0106120574     -0.00646333826       -0.918101319      -0.0739385228      0.00997916777      -0.0057091262
                     0.0155687969     -0.00744027582       0.0109706314     -0.00696495733      0.00997916777      -0.0057091262       -0.924252478      -0.0699825857

         1.772e+14      -0.873849558      -0.0905497971       0.0122341638     -0.00570755954       0.0179630328     -0.00848114785       0.0155978274     -0.00742025147
                     0.0122341638     -0.00570755954       -0.940983589      -0.0548459104       0.0106312997     -0.00642353921       0.0109868484     -0.00691751062
                     0.0179630328     -0.00848114785       0.0106312997     -0.00642353921       -0.918304275      -0.0733320014       0.0100135279      -0.0056790507
                     0.0155978274     -0.00742025147       0.0109868484     -0.00691751062       0.0100135279      -0.0056790507        -0.92444891      -0.0693685393

         1.773e+14      -0.874376326       -0.090020474       0.0122482396      -0.0056893013       0.0179976021     -0.00846560466        0.015627869      -0.0074012146
                     0.0122482396      -0.0056893013       -0.941220131      -0.0543017257       0.0106515204     -0.00638412293       0.0110041096     -0.00687031722
                     0.0179976021     -0.00846560466       0.0106515204     -0.00638412293       -0.918507077      -0.0727212902       0.0100491285     -0.00564983638
                      0.015627869      -0.0074012146       0.0110041096     -0.00687031722       0.0100491285     -0.00564983638       -0.924644169      -0.0687500735

         1.774e+14      -0.874909205       -0.089480025       0.0122630295     -0.00567141938       0.0180330943     -0.00845142252       0.0156589341     -0.00738323119
                     0.0122630295     -0.00567141938       -0.941455262      -0.0537509455       0.0106727522     -0.00634513054       0.0110224527     -0.00682341709
                     0.0180330943     -0.00845142252       0.0106727522     -0.00634513054       -0.918709722      -0.0721062024       0.0100859975     -0.00562155196
                     0.0156589341     -0.00738323119       0.0110224527     -0.00682341709       0.0100859975     -0.00562155196       -0.924838209      -0.0681270488

         1.775e+14      -0.875448178      -0.0889278431       0.0122785615     -0.00565394838       0.0180695033     -0.00843867528       0.0156910332     -0.00736637101
                     0.0122785615     -0.00565394838       -0.941688802      -0.0531934112       0.0106950279     -0.00630660677       0.0110419161     -0.00677685388
                     0.0180695033     -0.00843867528       0.0106950279     -0.00630660677       -0.918912201      -0.0714865377       0.0101241618     -0.00559427102
                     0.0156910332     -0.00736637101       0.0110419161     -0.00677685388       0.0101241618     -0.00559427102        -0.92503098      -0.0674993169

         1.776e+14       -0.87599321      -0.0883632887       0.0122948642     -0.00563692626       0.0181068198     -0.00842743992       0.0157241748     -0.00735070785
                     0.0122948642     -0.00563692626       -0.941920559      -0.0526289635        0.010718381     -0.00626860019       0.0110625387     -0.00673067529
                     0.0181068198     -0.00842743992        0.010718381     -0.00626860019         -0.9191145       -0.070862081       0.0101636469     -0.00556807225
                     0.0157241748     -0.00735070785       0.0110625387     -0.00673067529       0.0101636469     -0.00556807225       -0.925222428      -0.0668667192

         1.777e+14      -0.876544241      -0.0877856876       0.0123119668     -0.00562039456       0.0181450313     -0.00841779664       0.0157583649     -0.00733631959
                     0.0123119668     -0.00562039456       -0.942150328      -0.0520574426       0.0107428454     -0.00623116358       0.0110843601     -0.00668493337
                     0.0181450313     -0.00841779664       0.0107428454     -0.00623116358       -0.919316598      -0.0702326016       0.0102044773     -0.00554303983
                     0.0157583649     -0.00733631959       0.0110843601     -0.00668493337       0.0102044773     -0.00554303983       -0.925412496      -0.0662290866

         1.778e+14      -0.877101181      -0.0871943305       0.0123298991      -0.0056043988       0.0181841211      -0.0084098288       0.0157936067      -0.0073232884
                     0.0123298991      -0.0056043988       -0.942377895      -0.0514786885       0.0107684548     -0.00619435423       0.0111074201     -0.00663968488
                     0.0181841211      -0.0084098288       0.0107684548     -0.00619435423       -0.919518469      -0.0695978519       0.0102466753     -0.00551926371
                     0.0157936067      -0.0073232884       0.0111074201     -0.00663968488       0.0102466753     -0.00551926371       -0.925601117      -0.0655862383

