! Created Mon May 23 11:48:25 2022
# hz Z ri R 1
! 4 Port Network Data from SP1.SP block
! freq  reZ11  imZ11  reZ12  imZ12  reZ13  imZ13  reZ14  imZ14  
!       reZ21  imZ21  reZ22  imZ22  reZ23  imZ23  reZ24  imZ24  
!       reZ31  imZ31  reZ32  imZ32  reZ33  imZ33  reZ34  imZ34  
!       reZ41  imZ41  reZ42  imZ42  reZ43  imZ43  reZ44  imZ44  
!     
          1.75e+14        3.50782848        -2.89045284        0.319638768       -0.205697875        0.461832923       -0.305211632        0.401233019       -0.268608196
                      0.319638768       -0.205697875          1.6046825        -1.75181814        0.265687039       -0.224891027        0.275327982       -0.240989862
                      0.461832923       -0.305211632        0.265687039       -0.224891027         2.15055386        -2.35074705        0.244200325       -0.204132523
                      0.401233019       -0.268608196        0.275327982       -0.240989862        0.244200325       -0.204132523         1.99340928        -2.22977102

        1.7501e+14        3.50678861        -2.88922151        0.319656033       -0.205614925        0.461889844        -0.30509113        0.401277591       -0.268495348
                      0.319656033       -0.205614925          1.6041302        -1.75061824        0.265716961       -0.224757683        0.275349537       -0.240841146
                      0.461889844        -0.30509113        0.265716961       -0.224757683         2.15012777        -2.34921532        0.244258364       -0.204011878
                      0.401277591       -0.268495348        0.275349537       -0.240841146        0.244258364       -0.204011878         1.99296225        -2.22825633

        1.7502e+14        3.50574765        -2.88798918        0.319673372        -0.20553199        0.461946935       -0.304970732        0.401322318       -0.268382563
                      0.319673372        -0.20553199         1.60357775        -1.74941743        0.265747001       -0.224624343         0.27537121       -0.240692412
                      0.461946935       -0.304970732        0.265747001       -0.224624343         2.14970172        -2.34768308        0.244316576       -0.203891278
                      0.401322318       -0.268382563         0.27537121       -0.240692412        0.244316576       -0.203891278         1.99251536        -2.22674099

        1.7503e+14        3.50470558        -2.88675583        0.319690784       -0.205449069        0.462004195        -0.30485044          0.4013672        -0.26826984
                      0.319690784       -0.205449069         1.60302515        -1.74821572        0.265777159       -0.224491008        0.275393002       -0.240543661
                      0.462004195        -0.30485044        0.265777159       -0.224491008         2.14927573        -2.34615033        0.244374959       -0.203770723
                        0.4013672        -0.26826984        0.275393002       -0.240543661        0.244374959       -0.203770723         1.99206859        -2.22522502

        1.7504e+14         3.5036624        -2.88552148         0.31970827       -0.205366162        0.462061624       -0.304730253        0.401412238        -0.26815718
                       0.31970827       -0.205366162          1.6024724        -1.74701311        0.265807436       -0.224357678        0.275414912       -0.240394892
                      0.462061624       -0.304730253        0.265807436       -0.224357678          2.1488498        -2.34461707        0.244433516       -0.203650213
                      0.401412238        -0.26815718        0.275414912       -0.240394892        0.244433516       -0.203650213         1.99162195        -2.22370839

        1.7505e+14        3.50261811         -2.8842861         0.31972583        -0.20528327        0.462119223       -0.304610172        0.401457432       -0.268044583
                       0.31972583        -0.20528327          1.6019195         -1.7458096        0.265837832       -0.224224353        0.275436942       -0.240246105
                      0.462119223       -0.304610172        0.265837832       -0.224224353         2.14842392        -2.34308329        0.244492246       -0.203529749
                      0.401457432       -0.268044583        0.275436942       -0.240246105        0.244492246       -0.203529749         1.99117544        -2.22219112

        1.7506e+14         3.5015727         -2.8830497        0.319743465       -0.205200393        0.462176993       -0.304490198        0.401502783        -0.26793205
                      0.319743465       -0.205200393         1.60136645        -1.74460517        0.265868348       -0.224091034        0.275459092       -0.240097301
                      0.462176993       -0.304490198        0.265868348       -0.224091034         2.14799809        -2.34154901        0.244551151       -0.203409331
                      0.401502783        -0.26793205        0.275459092       -0.240097301        0.244551151       -0.203409331         1.99072906         -2.2206732

        1.7507e+14        3.50052618        -2.88181228        0.319761174        -0.20511753        0.462234933       -0.304370331         0.40154829       -0.267819582
                      0.319761174        -0.20511753         1.60081326        -1.74339983        0.265898983        -0.22395772        0.275481362        -0.23994848
                      0.462234933       -0.304370331        0.265898983        -0.22395772         2.14757231        -2.34001421         0.24461023       -0.203288959
                       0.40154829       -0.267819582        0.275481362        -0.23994848         0.24461023       -0.203288959         1.99028282        -2.21915463

        1.7508e+14        3.49947854        -2.88057382        0.319778959       -0.205034682        0.462293045       -0.304250572        0.401593956       -0.267707178
                      0.319778959       -0.205034682         1.60025992        -1.74219358        0.265929739       -0.223824413        0.275503752       -0.239799641
                      0.462293045       -0.304250572        0.265929739       -0.223824413         2.14714659         -2.3384789        0.244669484       -0.203168635
                      0.401593956       -0.267707178        0.275503752       -0.239799641        0.244669484       -0.203168635          1.9898367        -2.21763541

        1.7509e+14        3.49842978        -2.87933432        0.319796819       -0.204951849        0.462351327       -0.304130921        0.401639779        -0.26759484
                      0.319796819       -0.204951849         1.59970644        -1.74098641        0.265960616       -0.223691111        0.275526265       -0.239650785
                      0.462351327       -0.304130921        0.265960616       -0.223691111         2.14672093        -2.33694307        0.244728913       -0.203048357
                      0.401639779        -0.26759484        0.275526265       -0.239650785        0.244728913       -0.203048357         1.98939072        -2.21611554

         1.751e+14         3.4973799        -2.87809378        0.319814754       -0.204869031        0.462409782        -0.30401138         0.40168576       -0.267482567
                      0.319814754       -0.204869031         1.59915281        -1.73977833        0.265991614       -0.223557815        0.275548899       -0.239501912
                      0.462409782        -0.30401138        0.265991614       -0.223557815         2.14629531        -2.33540672        0.244788519       -0.202928128
                       0.40168576       -0.267482567        0.275548899       -0.239501912        0.244788519       -0.202928128         1.98894487        -2.21459502

        1.7511e+14        3.49632889        -2.87685219        0.319832765       -0.204786228        0.462468409       -0.303891948          0.4017319        -0.26737036
                      0.319832765       -0.204786228         1.59859904        -1.73856932        0.266022733       -0.223424526        0.275571655       -0.239353023
                      0.462468409       -0.303891948        0.266022733       -0.223424526         2.14586975        -2.33386985        0.244848301       -0.202807947
                        0.4017319        -0.26737036        0.275571655       -0.239353023        0.244848301       -0.202807947         1.98849916        -2.21307384

        1.7512e+14        3.49527676        -2.87560955        0.319850853        -0.20470344        0.462527208       -0.303772626          0.4017782       -0.267258219
                      0.319850853        -0.20470344         1.59804513        -1.73735938        0.266053975       -0.223291243        0.275594534       -0.239204116
                      0.462527208       -0.303772626        0.266053975       -0.223291243         2.14544425        -2.33233246        0.244908261       -0.202687814
                        0.4017782       -0.267258219        0.275594534       -0.239204116        0.244908261       -0.202687814         1.98805358          -2.211552

        1.7513e+14        3.49422349        -2.87436586        0.319869018       -0.204620667         0.46258618       -0.303653416        0.401824659       -0.267146146
                      0.319869018       -0.204620667         1.59749108        -1.73614852        0.266085339       -0.223157967        0.275617536       -0.239055193
                       0.46258618       -0.303653416        0.266085339       -0.223157967          2.1450188        -2.33079455        0.244968398        -0.20256773
                      0.401824659       -0.267146146        0.275617536       -0.239055193        0.244968398        -0.20256773         1.98760813        -2.21002951

        1.7514e+14         3.4931691         -2.8731211        0.319887259        -0.20453791        0.462645325       -0.303534316        0.401871278        -0.26703414
                      0.319887259        -0.20453791         1.59693688        -1.73493673        0.266116826       -0.223024697        0.275640662       -0.238906254
                      0.462645325       -0.303534316        0.266116826       -0.223024697          2.1445934        -2.32925612        0.245028714       -0.202447696
                      0.401871278        -0.26703414        0.275640662       -0.238906254        0.245028714       -0.202447696         1.98716282        -2.20850636

        1.7515e+14        3.49211357        -2.87187527        0.319905577       -0.204455168        0.462704643       -0.303415329        0.401918058       -0.266922201
                      0.319905577       -0.204455168         1.59638255        -1.73372401        0.266148437       -0.222891435        0.275663912       -0.238757298
                      0.462704643       -0.303415329        0.266148437       -0.222891435         2.14416805        -2.32771716        0.245089209       -0.202327712
                      0.401918058       -0.266922201        0.275663912       -0.238757298        0.245089209       -0.202327712         1.98671765        -2.20698255

        1.7516e+14         3.4910569        -2.87062836        0.319923973       -0.204372441        0.462764136       -0.303296455        0.401964998       -0.266810331
                      0.319923973       -0.204372441         1.59582809        -1.73251035        0.266180171        -0.22275818        0.275687287       -0.238608325
                      0.462764136       -0.303296455        0.266180171        -0.22275818         2.14374276        -2.32617768        0.245149883       -0.202207778
                      0.401964998       -0.266810331        0.275687287       -0.238608325        0.245149883       -0.202207778         1.98627261        -2.20545808

        1.7517e+14        3.48999909        -2.86938038        0.319942447        -0.20428973        0.462823803       -0.303177693          0.4020121        -0.26669853
                      0.319942447        -0.20428973         1.59527348        -1.73129575         0.26621203       -0.222624932        0.275710787       -0.238459337
                      0.462823803       -0.303177693         0.26621203       -0.222624932         2.14331752        -2.32463767        0.245210736       -0.202087895
                        0.4020121        -0.26669853        0.275710787       -0.238459337        0.245210736       -0.202087895         1.98582771        -2.20393294

        1.7518e+14        3.48894014        -2.86813132        0.319960999       -0.204207035        0.462883644       -0.303059046        0.402059364       -0.266586798
                      0.319960999       -0.204207035         1.59471875        -1.73008021        0.266244013       -0.222491692        0.275734413       -0.238310333
                      0.462883644       -0.303059046        0.266244013       -0.222491692         2.14289233        -2.32309713        0.245271771       -0.201968063
                      0.402059364       -0.266586798        0.275734413       -0.238310333        0.245271771       -0.201968063         1.98538295        -2.20240714

        1.7519e+14        3.48788004        -2.86688117        0.319979629       -0.204124356        0.462943661       -0.302940513        0.402106791       -0.266475136
                      0.319979629       -0.204124356         1.59416387        -1.72886373        0.266276122        -0.22235846        0.275758165       -0.238161312
                      0.462943661       -0.302940513        0.266276122        -0.22235846          2.1424672        -2.32155607        0.245332986       -0.201848283
                      0.402106791       -0.266475136        0.275758165       -0.238161312        0.245332986       -0.201848283         1.98493833        -2.20088068

         1.752e+14         3.4868188        -2.86562992        0.319998338       -0.204041693        0.463003852       -0.302822096         0.40215438       -0.266363544
                      0.319998338       -0.204041693         1.59360887         -1.7276463        0.266308356       -0.222225235        0.275782043       -0.238012277
                      0.463003852       -0.302822096        0.266308356       -0.222225235         2.14204212        -2.32001447        0.245394383       -0.201728554
                       0.40215438       -0.266363544        0.275782043       -0.238012277        0.245394383       -0.201728554         1.98449384        -2.19935354

        1.7521e+14        3.48575641        -2.86437757        0.320017127       -0.203959045         0.46306422       -0.302703794        0.402202132       -0.266252023
                      0.320017127       -0.203959045         1.59305373        -1.72642793        0.266340716       -0.222092019        0.275806049       -0.237863225
                       0.46306422       -0.302703794        0.266340716       -0.222092019         2.14161709        -2.31847234        0.245455962       -0.201608879
                      0.402202132       -0.266252023        0.275806049       -0.237863225        0.245455962       -0.201608879          1.9840495        -2.19782574

        1.7522e+14        3.48469287        -2.86312412        0.320035995       -0.203876414        0.463124763       -0.302585609        0.402250048       -0.266140573
                      0.320035995       -0.203876414         1.59249846         -1.7252086        0.266373203       -0.221958811        0.275830183       -0.237714158
                      0.463124763       -0.302585609        0.266373203       -0.221958811         2.14119212        -2.31692968        0.245517724       -0.201489256
                      0.402250048       -0.266140573        0.275830183       -0.237714158        0.245517724       -0.201489256          1.9836053        -2.19629728

        1.7523e+14        3.48362818        -2.86186956        0.320054942       -0.203793799        0.463185483        -0.30246754        0.402298128       -0.266029194
                      0.320054942       -0.203793799         1.59194306        -1.72398832        0.266405817       -0.221825612        0.275854445       -0.237565076
                      0.463185483        -0.30246754        0.266405817       -0.221825612         2.14076719        -2.31538648        0.245579669       -0.201369687
                      0.402298128       -0.266029194        0.275854445       -0.237565076        0.245579669       -0.201369687         1.98316124        -2.19476813

        1.7524e+14        3.48256233        -2.86061389         0.32007397         -0.2037112         0.46324638        -0.30234959        0.402346372       -0.265917888
                       0.32007397         -0.2037112         1.59138754        -1.72276708        0.266438558       -0.221692421        0.275878835       -0.237415978
                       0.46324638        -0.30234959        0.266438558       -0.221692421         2.14034232        -2.31384274        0.245641798       -0.201250171
                      0.402346372       -0.265917888        0.275878835       -0.237415978        0.245641798       -0.201250171         1.98271732        -2.19323832

        1.7525e+14        3.48149532        -2.85935709        0.320093078       -0.203628618        0.463307454       -0.302231757        0.402394782       -0.265806654
                      0.320093078       -0.203628618         1.59083188        -1.72154488        0.266471427       -0.221559239        0.275903355       -0.237266866
                      0.463307454       -0.302231757        0.266471427       -0.221559239         2.13991751        -2.31229847        0.245704111        -0.20113071
                      0.402394782       -0.265806654        0.275903355       -0.237266866        0.245704111        -0.20113071         1.98227354        -2.19170784

        1.7526e+14        3.48042715        -2.85809917        0.320112266       -0.203546052        0.463368705       -0.302114044        0.402443357       -0.265695493
                      0.320112266       -0.203546052         1.59027611        -1.72032172        0.266504424       -0.221426067        0.275928004       -0.237117739
                      0.463368705       -0.302114044        0.266504424       -0.221426067         2.13949274        -2.31075366        0.245766609       -0.201011304
                      0.402443357       -0.265695493        0.275928004       -0.237117739        0.245766609       -0.201011304         1.98182991        -2.19017667

        1.7527e+14        3.47935782        -2.85684011        0.320131536       -0.203463503        0.463430134       -0.301996451        0.402492098       -0.265584406
                      0.320131536       -0.203463503          1.5897202         -1.7190976         0.26653755       -0.221292904        0.275952784       -0.236968597
                      0.463430134       -0.301996451         0.26653755       -0.221292904         2.13906803         -2.3092083        0.245829292       -0.200891953
                      0.402492098       -0.265584406        0.275952784       -0.236968597        0.245829292       -0.200891953         1.98138642        -2.18864484

        1.7528e+14        3.47828732        -2.85557992        0.320150887       -0.203380971        0.463491742       -0.301878977        0.402541005       -0.265473393
                      0.320150887       -0.203380971         1.58916417         -1.7178725        0.266570806        -0.22115975        0.275977695        -0.23681944
                      0.463491742       -0.301878977        0.266570806        -0.22115975         2.13864337        -2.30766241        0.245892162       -0.200772658
                      0.402541005       -0.265473393        0.275977695        -0.23681944        0.245892162       -0.200772658         1.98094307        -2.18711232

