! Created Mon Jun 27 09:49:36 2022
# hz S ri R 50
! 4 Port Network Data from SP1.SP block
! freq  reS11  imS11  reS12  imS12  reS13  imS13  reS14  imS14  
!       reS21  imS21  reS22  imS22  reS23  imS23  reS24  imS24  
!       reS31  imS31  reS32  imS32  reS33  imS33  reS34  imS34  
!       reS41  imS41  reS42  imS42  reS43  imS43  reS44  imS44  
!     
    1.00016761e+14   -0.000411199117     0.000120885441        0.267012125      -0.0184748119        0.539839033      -0.0635000349        0.360850349      -0.0210656425
                      0.267012125      -0.0184748119    -0.000847122914     0.000703413187        0.329437917       -0.020857176         0.53069686      -0.0527970907
                      0.539839033      -0.0635000349        0.329437917       -0.020857176     -0.00035477896      0.00017819695        0.286095777       -0.021673895
                      0.360850349      -0.0210656425         0.53069686      -0.0527970907        0.286095777       -0.021673895    -0.000833660387     0.000731617128

    1.02874383e+14   -0.000121455505     0.000162976847        0.273973326      -0.0191056485        0.491476244      -0.0444320659        0.383003728      -0.0212574652
                      0.273973326      -0.0191056485     -0.00031418593     0.000883318389        0.351435222      -0.0211587124        0.483322619      -0.0370904748
                      0.491476244      -0.0444320659        0.351435222      -0.0211587124    -0.000146393276     0.000159322123        0.295226257      -0.0227119132
                      0.383003728      -0.0212574652        0.483322619      -0.0370904748        0.295226257      -0.0227119132    -0.000306181174     0.000925941782

    1.05732005e+14   -0.000360677802     0.000155768406         0.27697123      -0.0191726719        0.439995591      -0.0522678135        0.404552288      -0.0203593866
                       0.27697123      -0.0191726719    -0.000374752106     0.000846078135        0.375090331      -0.0204577837         0.43249564      -0.0508515002
                      0.439995591      -0.0522678135        0.375090331      -0.0204577837    -0.000344947669     0.000160299099        0.299763987      -0.0230320898
                      0.404552288      -0.0203593866         0.43249564      -0.0508515002        0.299763987      -0.0230320898    -0.000407445649     0.000908486649

    1.08589627e+14   -0.000611872638     0.000219693316        0.274277099      -0.0186602018        0.390572742      -0.0406355852        0.427656329       -0.018464972
                      0.274277099      -0.0186602018    -0.000897368282      0.00108210945        0.403178832      -0.0188341727        0.384301345      -0.0360918383
                      0.390572742      -0.0406355852        0.403178832      -0.0188341727    -0.000760546632     0.000265744702        0.297706169      -0.0225566301
                      0.427656329       -0.018464972        0.384301345      -0.0360918383        0.297706169      -0.0225566301    -0.000860038988      0.00121717289

    1.11447248e+14   -0.000304064701     0.000312826272        0.266035347      -0.0177422734        0.344065816       -0.011620446         0.45829086       -0.016032593
                      0.266035347      -0.0177422734    -0.000563172702      0.00138446943        0.442553345      -0.0167095048        0.339865895      0.00940758627
                      0.344065816       -0.011620446        0.442553345      -0.0167095048    -0.000577064178     0.000290970091        0.289047247      -0.0214195216
                       0.45829086       -0.016032593        0.339865895      0.00940758627        0.289047247      -0.0214195216    -0.000732913946      0.00149339966

     1.1430487e+14    -0.00031594348     0.000417442955        0.250613684      -0.0164475317        0.298613936       0.0128682951        0.499925262      -0.0135404147
                      0.250613684      -0.0164475317     -0.00247648032      0.00104969855        0.498844731      -0.0145363963        0.293644396      -0.0199160071
                      0.298613936       0.0128682951        0.498844731      -0.0145363963    -0.000693025751     0.000302148059        0.271731856      -0.0195988847
                      0.499925262      -0.0135404147        0.293644396      -0.0199160071        0.271731856      -0.0195988847     -0.00305034208      0.00106390822

    1.17162492e+14   -0.000435846376     0.000509506707        0.226460104      -0.0147687458        0.254795453        0.028652333        0.555378418      -0.0115374386
                      0.226460104      -0.0147687458      -0.0039679469      0.00174697654        0.577660572      -0.0128032395        0.252812309      -0.0265636934
                      0.254795453        0.028652333        0.577660572      -0.0128032395     -0.00098205805     0.000344692203        0.244527969      -0.0171514526
                      0.555378418      -0.0115374386        0.252812309      -0.0265636934        0.244527969      -0.0171514526     -0.00396326149      0.00175861045

    1.20020114e+14   -0.000515425435     0.000515285534        0.194701576      -0.0127435798         0.21394981    -0.000624512916        0.622562275      -0.0102504868
                      0.194701576      -0.0127435798     -0.00202568768       0.0022173813        0.681129084      -0.0116034955         0.21466323     -0.00776134559
                       0.21394981    -0.000624512916        0.681129084      -0.0116034955    -0.000546212297     0.000493066986        0.209583798      -0.0142808037
                      0.622562275      -0.0102504868         0.21466323     -0.00776134559        0.209583798      -0.0142808037     -0.00181347038      0.00221904189

    1.22877735e+14    -0.00144376078     0.000541705895        0.154610042      -0.0102006595         0.17523179      -0.0329256347        0.683568481     -0.00936264093
                      0.154610042      -0.0102006595     -0.00542522056      0.00105084783        0.791050486      -0.0102958678        0.180725229     -0.00183486878
                       0.17523179      -0.0329256347        0.791050486      -0.0102958678     -0.00122887034     0.000745709405        0.166742042      -0.0109843721
                      0.683568481     -0.00936264093        0.180725229     -0.00183486878        0.166742042      -0.0109843721     -0.00556090588       0.0012183053

    1.25735357e+14    -0.00108401597     0.000549305009         0.10631481     -0.00710307168        0.144613224      -0.0456985794        0.731894516     -0.00888918507
                       0.10631481     -0.00710307168     -0.00257717839      0.00234136182        0.891352498     -0.00870367147        0.149587115     -0.00723785978
                      0.144613224      -0.0456985794        0.891352498     -0.00870367147     -0.00114476166     0.000690971769        0.117160458     -0.00744341879
                      0.731894516     -0.00888918507        0.149587115     -0.00723785978        0.117160458     -0.00744341879     -0.00287474993      0.00256115598

    1.28592979e+14    -0.00323886069     0.000558858631       0.0570946802     -0.00376939739        0.118295972      -0.0350975908        0.756647014     -0.00870184485
                     0.0570946802     -0.00376939739     -0.00399368107      0.00112560213        0.950773168     -0.00689944044        0.121383768      0.00427082567
                      0.118295972      -0.0350975908        0.950773168     -0.00689944044     -0.00355385643     0.000555127991       0.0682753533      -0.0040320676
                      0.756647014     -0.00870184485        0.121383768      0.00427082567       0.0682753533      -0.0040320676     -0.00459798164      0.00139885843

    1.31450601e+14     -0.0011670566     0.000834112522       0.0198078632    -0.000756012282       0.0960897436     -0.00986991259        0.766421231     -0.00896021119
                     0.0198078632    -0.000756012282      -0.0022484006      0.00182395436        0.959396046     -0.00552337978       0.0965153217      -0.0181378208
                     0.0960897436     -0.00986991259        0.959396046     -0.00552337978      -0.0019748251     0.000829193135       0.0321484757     -0.00114241054
                      0.766421231     -0.00896021119       0.0965153217      -0.0181378208       0.0321484757     -0.00114241054     -0.00259957202      0.00206494315

    1.34308222e+14    -0.00268248631     0.000848777369       0.0114881814      0.00135376446       0.0774548547       0.0196569969        0.758374358     -0.00926319473
                     0.0114881814      0.00135376446     -0.00398135039      0.00107471497         0.91199737     -0.00483837622       0.0764012413       0.0200641903
                     0.0774548547       0.0196569969         0.91199737     -0.00483837622     -0.00351546898     0.000732622669       0.0246863465     0.000851960315
                      0.758374358     -0.00926319473       0.0764012413       0.0200641903       0.0246863465     0.000851960315     -0.00393498958      0.00158162788

    1.37165844e+14    -0.00106933784     0.000989826009       0.0374888739      0.00235653664       0.0592357149      -0.0200002871        0.732547162     -0.00913873841
                     0.0374888739      0.00235653664     -0.00233656732      0.00206560233        0.830019107     -0.00470785637       0.0609446728      0.00231333473
                     0.0592357149      -0.0200002871        0.830019107     -0.00470785637     -0.00172192001      0.00140210327       0.0503133026      0.00216128752
                      0.732547162     -0.00913873841       0.0609446728      0.00231333473       0.0503133026      0.00216128752     -0.00261177453      0.00236956759

    1.40023466e+14    -0.00160698655     0.000916062474       0.0920261374      0.00235295926       0.0464370006      0.00931824445        0.672523824     -0.00804562176
                     0.0920261374      0.00235295926     -0.00184685339      0.00167963924        0.718804188     -0.00453944134       0.0466771676      -0.0143057925
                     0.0464370006      0.00931824445        0.718804188     -0.00453944134     -0.00227473893      0.00097683873        0.102444074      0.00292229039
                      0.672523824     -0.00804562176       0.0466771676      -0.0143057925        0.102444074      0.00292229039     -0.00199517612      0.00177811214

    1.42881088e+14    -0.00171711185     0.000847263731        0.161810595      0.00172653637       0.0350720178     -0.00247671277        0.589558241     -0.00629327375
                      0.161810595      0.00172653637     -0.00416721067     0.000862972965         0.60255761     -0.00394718388       0.0357064809       0.0030204346
                     0.0350720178     -0.00247671277         0.60255761     -0.00394718388     -0.00219146564      0.00119355683        0.169468588      0.00310409295
                      0.589558241     -0.00629327375       0.0357064809       0.0030204346        0.169468588      0.00310409295     -0.00447263266      0.00101449119

    1.45738709e+14    -0.00825258107     0.000165867841        0.240829877      0.00102921693       0.0230705421      -0.0211663368        0.487597615      -0.0043947179
                      0.240829877      0.00102921693     -0.00764972875      0.00192205566        0.481525867     -0.00295795194       0.0200845312      0.00200517616
                     0.0230705421      -0.0211663368        0.481525867     -0.00295795194     -0.00920106116     0.000420842381         0.24569979      0.00266102162
                      0.487597615      -0.0043947179       0.0200845312      0.00200517616         0.24569979      0.00266102162      -0.0079016286      0.00233646873

    1.48596331e+14    -0.00883220627     0.000443900625        0.318301814     0.000631711406       0.0201102375       0.0118838145         0.40507984      -0.0028069256
                      0.318301814     0.000631711406     -0.00718147888     0.000802151584        0.387531399     -0.00205102992       0.0175096975     -0.00122938049
                     0.0201102375       0.0118838145        0.387531399     -0.00205102992      -0.0101867207    -3.34801279e-05        0.320715068      0.00220875983
                       0.40507984      -0.0028069256       0.0175096975     -0.00122938049        0.320715068      0.00220875983     -0.00696660293      0.00100633731

    1.51453953e+14    -0.00614411035      0.00045793292        0.390619396     0.000476671014       0.0173814494    -2.64007358e-05        0.324195938      -0.0013533675
                      0.390619396     0.000476671014     -0.00621733494     0.000712055972        0.299216683     -0.00113857131       0.0165645925     -0.00973919981
                     0.0173814494    -2.64007358e-05        0.299216683     -0.00113857131     -0.00707769048     0.000396718995        0.393922624       0.0021878278
                      0.324195938      -0.0013533675       0.0165645925     -0.00973919981        0.393922624       0.0021878278     -0.00656843087      0.00104429282

    1.54311575e+14    -0.00229959882     0.000626531701        0.451860979     0.000662929927        0.011244337     -0.00673111177         0.25662283     -0.00044824466
                      0.451860979     0.000662929927      -0.0097645334     0.000220216377         0.22625807    -0.000276692669       0.0157907014     0.000184926848
                      0.011244337     -0.00673111177         0.22625807    -0.000276692669     -0.00254543865     0.000836595026        0.462298198      0.00232492589
                       0.25662283     -0.00044824466       0.0157907014     0.000184926848        0.462298198      0.00232492589     -0.00916226676     0.000368732967

    1.57169196e+14    -0.00308018586    -0.000309424545        0.508335719      0.00096537787       0.0135986633     -0.00111086392        0.201081143    -0.000354088282
                      0.508335719      0.00096537787     -0.00741261651     0.000460963788        0.169600162      0.00041397709         0.01264904       0.0042074539
                     0.0135986633     -0.00111086392        0.169600162      0.00041397709      -0.0027936852    -9.28187587e-05        0.528404256      0.00210092463
                      0.201081143    -0.000354088282         0.01264904       0.0042074539        0.528404256      0.00210092463     -0.00685310393      0.00041551376

    1.60026818e+14    -0.00190330914    -0.000149450982         0.55714426      0.00111314273       0.0125716475    -0.000471440255        0.154233927    -0.000717400938
                       0.55714426      0.00111314273     -0.00236005009     0.000681393903        0.126488346     0.000800213353       0.0120833458      0.00173046331
                     0.0125716475    -0.000471440255        0.126488346     0.000800213353     -0.00177061322    -1.98765209e-05        0.582624607      0.00167118969
                      0.154233927    -0.000717400938       0.0120833458      0.00173046331        0.582624607      0.00167118969     -0.00216748414     0.000473944309

     1.6288444e+14    -0.00148057357     -0.00020518601        0.593378132     0.000953997364       0.0111397181      0.00111235891        0.116049738     -0.00107029907
                      0.593378132     0.000953997364     -0.00322173477     0.000764188393       0.0947473597     0.000902214664       0.0112974511      0.00127464047
                     0.0111397181      0.00111235891       0.0947473597     0.000902214664     -0.00132113888    -7.93495622e-05        0.618887907      0.00125631605
                      0.116049738     -0.00107029907       0.0112974511      0.00127464047        0.618887907      0.00125631605     -0.00302421244     0.000564140561

    1.65742062e+14     -0.0112240417      -0.0011298132        0.622321955     0.000515708856       0.0087457918     0.000102142835       0.0854014707     -0.00134539078
                      0.622321955     0.000515708856      -0.0166554816     0.000774347697       0.0691775767     0.000710694546      0.00928997601     -0.00188600287
                     0.0087457918     0.000102142835       0.0691775767     0.000710694546      -0.0124211284    -0.000985981435        0.641633754     0.000655284814
                     0.0854014707     -0.00134539078      0.00928997601     -0.00188600287        0.641633754     0.000655284814      -0.0172068289      0.00065598194

    1.68599683e+14    -0.00155350397    -0.000394386107        0.662151539    -0.000178425632      0.00900433134     -0.00184059193       0.0656100245     -0.00156147209
                      0.662151539    -0.000178425632     -0.00285133807     0.000682209838       0.0508532928     0.000458541282      0.00871968828     -0.00206122205
                    0.00900433134     -0.00184059193       0.0508532928     0.000458541282     -0.00150272191    -0.000292142055         0.67366548    -7.61480317e-05
                     0.0656100245     -0.00156147209      0.00871968828     -0.00206122205         0.67366548    -7.61480317e-05     -0.00252019598     0.000624047764

    1.71457305e+14     -0.0247363772     0.000776747391        0.687433207    -0.000875771189      0.00616336908     -0.00099093135       0.0481350411     -0.00160443298
                      0.687433207    -0.000875771189      -0.0317430523     0.000699360509       0.0337199147     0.000316463161      0.00730124473     -0.00164823646
                    0.00616336908     -0.00099093135       0.0337199147     0.000316463161      -0.0265450461     0.000771252987        0.688444624    -0.000453041194
                     0.0481350411     -0.00160443298      0.00730124473     -0.00164823646        0.688444624    -0.000453041194      -0.0321571467      0.00069662529

    1.74314927e+14     -0.0228064436     -0.00206403485        0.716254488     -0.00134136297      0.00714107614    -0.000105501023       0.0374433233      -0.0015796891
                      0.716254488     -0.00134136297      -0.0241092748     0.000496666321       0.0233917602     0.000237728409      0.00620909017     -0.00250031935
                    0.00714107614    -0.000105501023       0.0233917602     0.000237728409      -0.0230481163     -0.00208902938        0.709645337    -0.000511636174
                     0.0374433233      -0.0015796891      0.00620909017     -0.00250031935        0.709645337    -0.000511636174       -0.023866888     0.000499552449

    1.77172549e+14     -0.0133758788    -0.000196618838        0.735463529     -0.00149178841      0.00744167178     -0.00144291316       0.0295125926      -0.0015065297
                      0.735463529     -0.00149178841      -0.0106028348     0.000199337226       0.0163764162     0.000129340122      0.00560248533     -0.00293434262
                    0.00744167178     -0.00144291316       0.0163764162     0.000129340122      -0.0129111954    -0.000235664375        0.726646549    -0.000498891943
                     0.0295125926      -0.0015065297      0.00560248533     -0.00293434262        0.726646549    -0.000498891943     -0.00919162319     0.000177122775

     1.8003017e+14     -0.0221953002     -0.00207102602        0.746913311     -0.00154045152      0.00648611401    -0.000287215196       0.0233661017     -0.00135275044
                      0.746913311     -0.00154045152       -0.023247575     0.000400875858       0.0113268773     4.19979397e-05      0.00600818776    -1.27644094e-05
                    0.00648611401    -0.000287215196       0.0113268773     4.19979397e-05      -0.0220769475     -0.00206264626        0.734425704    -0.000500984566
                     0.0233661017     -0.00135275044      0.00600818776    -1.27644094e-05        0.734425704    -0.000500984566      -0.0224004016     0.000325587039

